
**** 10/18/18 12:51:05 ******* PSpice Lite (March 2016) ******* ID# 10813 ****

 regelbareverschilversterkerlin


 ****     CIRCUIT DESCRIPTION


******************************************************************************



R1      6       1       10k
R2      1       0       10k
R3      7       2       10k
R4      2       8       10k
R5      8       9       1000
Rg  9   5       RMOD    1
V1      6       0       AC      1
V2      7       0       AC      2
Vcc     3       0       DC      15
Vee     4       0       DC      -15
X1      1       2       3       4       5       TL072
X2      0       9       3       4       8       TL072
.AC DEC 1000    3       300k
.PROBE

* POTENTIOMETER
.MODEL RMOD RES(R=1k)
.STEP RES RMOD(R) 1k,10000,1000

* TL072 OPERATIONAL AMPLIFIER "MACROMODEL" SUBCIRCUIT
* CREATED USING PARTS RELEASE 4.01 ON 06/16/89 AT 13:08
* (REV N/A)      SUPPLY VOLTAGE: +/-15V
* CONNECTIONS:   NON-INVERTING INPUT
*                | INVERTING INPUT
*                | | POSITIVE POWER SUPPLY
*                | | | NEGATIVE POWER SUPPLY
*                | | | | OUTPUT
*                | | | | |
.SUBCKT TL072    1 2 3 4 5
*
  C1   11 12 3.498E-12
  C2    6  7 15.00E-12
  DC    5 53 DX
  DE   54  5 DX
  DLP  90 91 DX
  DLN  92 90 DX
  DP    4  3 DX
  EGND 99  0 POLY(2) (3,0) (4,0) 0 .5 .5
  FB    7 99 POLY(5) VB VC VE VLP VLN 0 4.715E6 -5E6 5E6 5E6 -5E6
  GA    6  0 11 12 282.8E-6
  GCM   0  6 10 99 8.942E-9
  ISS   3 10 DC 195.0E-6
  HLIM 90  0 VLIM 1K
  J1   11  2 10 JX
  J2   12  1 10 JX
  R2    6  9 100.0E3
  RD1   4 11 3.536E3
  RD2   4 12 3.536E3
  RO1   8  5 150
  RO2   7 99 150
  RP    3  4 2.143E3
  RSS  10 99 1.026E6
  VB    9  0 DC 0
  VC    3 53 DC 2.200
  VE   54  4 DC 2.200
  VLIM  7  8 DC 0
  VLP  91  0 DC 25
  VLN   0 92 DC 25
.MODEL DX D(IS=800.0E-18)
.MODEL JX PJF(IS=15.00E-12 BETA=270.1E-6 VTO=-1)
.ENDS

.END

**** 10/18/18 12:51:05 ******* PSpice Lite (March 2016) ******* ID# 10813 ****

 regelbareverschilversterkerlin


 ****     Diode MODEL PARAMETERS


******************************************************************************




               X1.DX           X2.DX           
          IS  800.000000E-18  800.000000E-18 


**** 10/18/18 12:51:05 ******* PSpice Lite (March 2016) ******* ID# 10813 ****

 regelbareverschilversterkerlin


 ****     Junction FET MODEL PARAMETERS


******************************************************************************




               X1.JX           X2.JX           
               PJF             PJF             
         VTO   -1              -1            
        BETA  270.100000E-06  270.100000E-06 
          IS   15.000000E-12   15.000000E-12 


**** 10/18/18 12:51:05 ******* PSpice Lite (March 2016) ******* ID# 10813 ****

 regelbareverschilversterkerlin


 ****     Resistor MODEL PARAMETERS


******************************************************************************




               RMOD            
           R    1.000000E+03 


**** 10/18/18 12:51:05 ******* PSpice Lite (March 2016) ******* ID# 10813 ****

 regelbareverschilversterkerlin


 ****     SMALL SIGNAL BIAS SOLUTION       TEMPERATURE =   27.000 DEG C

 ****     CURRENT STEP                     RMOD R =    1.0000E+03


******************************************************************************



 NODE   VOLTAGE     NODE   VOLTAGE     NODE   VOLTAGE     NODE   VOLTAGE


(    1)-225.3E-09  (    2) 10.75E-06  (    3)   15.0000  (    4)  -15.0000      

(    5) 43.06E-09  (    6)    0.0000  (    7)    0.0000  (    8) 21.94E-06      

(    9) 10.97E-06  ( X1.6) 459.8E-12  ( X1.7)-1.596E-06  ( X1.8)-1.596E-06      

( X1.9)    0.0000  ( X2.6)-3.623E-09  ( X2.7) 23.76E-06  ( X2.8) 23.76E-06      

( X2.9)    0.0000  (X1.10)    -.3986  (X1.11)  -14.6550  (X1.12)  -14.6550      

(X1.53)   12.8000  (X1.54)  -12.8000  (X1.90)-10.93E-06  (X1.91)   25.0000      

(X1.92)  -25.0000  (X1.99)    0.0000  (X2.10)    -.3986  (X2.11)  -14.6550      

(X2.12)  -14.6550  (X2.53)   12.8000  (X2.54)  -12.8000  (X2.90) 12.09E-06      

(X2.91)   25.0000  (X2.92)  -25.0000  (X2.99)    0.0000  




    VOLTAGE SOURCE CURRENTS
    NAME         CURRENT

    V1          -2.253E-11
    V2           1.075E-09
    Vcc         -2.839E-02
    Vee          2.839E-02
    X1.VB        4.597E-15
    X1.VC        1.280E-11
    X1.VE        1.280E-11
    X1.VLIM     -1.093E-08
    X1.VLP      -2.500E-11
    X1.VLN      -2.500E-11
    X2.VB       -3.623E-14
    X2.VC        1.280E-11
    X2.VE        1.280E-11
    X2.VLIM      1.209E-08
    X2.VLP      -2.500E-11
    X2.VLN      -2.500E-11

    TOTAL POWER DISSIPATION   8.52E-01  WATTS


**** 10/18/18 12:51:05 ******* PSpice Lite (March 2016) ******* ID# 10813 ****

 regelbareverschilversterkerlin


 ****     SMALL SIGNAL BIAS SOLUTION       TEMPERATURE =   27.000 DEG C

 ****     CURRENT STEP                     RMOD R =    2.0000E+03


******************************************************************************



 NODE   VOLTAGE     NODE   VOLTAGE     NODE   VOLTAGE     NODE   VOLTAGE


(    1)-225.3E-09  (    2) 10.75E-06  (    3)   15.0000  (    4)  -15.0000      

(    5)-10.88E-06  (    6)    0.0000  (    7)    0.0000  (    8) 21.94E-06      

(    9) 10.97E-06  ( X1.6) 2.007E-09  ( X1.7)-12.52E-06  ( X1.8)-12.52E-06      

( X1.9)    0.0000  ( X2.6)-3.622E-09  ( X2.7) 23.76E-06  ( X2.8) 23.76E-06      

( X2.9)    0.0000  (X1.10)    -.3986  (X1.11)  -14.6550  (X1.12)  -14.6550      

(X1.53)   12.8000  (X1.54)  -12.8000  (X1.90)-10.93E-06  (X1.91)   25.0000      

(X1.92)  -25.0000  (X1.99)    0.0000  (X2.10)    -.3986  (X2.11)  -14.6550      

(X2.12)  -14.6550  (X2.53)   12.8000  (X2.54)  -12.8000  (X2.90) 12.09E-06      

(X2.91)   25.0000  (X2.92)  -25.0000  (X2.99)    0.0000  




    VOLTAGE SOURCE CURRENTS
    NAME         CURRENT

    V1          -2.253E-11
    V2           1.075E-09
    Vcc         -2.839E-02
    Vee          2.839E-02
    X1.VB        2.007E-14
    X1.VC        1.280E-11
    X1.VE        1.280E-11
    X1.VLIM     -1.093E-08
    X1.VLP      -2.500E-11
    X1.VLN      -2.500E-11
    X2.VB       -3.622E-14
    X2.VC        1.280E-11
    X2.VE        1.280E-11
    X2.VLIM      1.209E-08
    X2.VLP      -2.500E-11
    X2.VLN      -2.500E-11

    TOTAL POWER DISSIPATION   8.52E-01  WATTS


**** 10/18/18 12:51:05 ******* PSpice Lite (March 2016) ******* ID# 10813 ****

 regelbareverschilversterkerlin


 ****     SMALL SIGNAL BIAS SOLUTION       TEMPERATURE =   27.000 DEG C

 ****     CURRENT STEP                     RMOD R =    3.0000E+03


******************************************************************************



 NODE   VOLTAGE     NODE   VOLTAGE     NODE   VOLTAGE     NODE   VOLTAGE


(    1)-225.3E-09  (    2) 10.75E-06  (    3)   15.0000  (    4)  -15.0000      

(    5)-21.81E-06  (    6)    0.0000  (    7)    0.0000  (    8) 21.94E-06      

(    9) 10.97E-06  ( X1.6) 3.554E-09  ( X1.7)-23.45E-06  ( X1.8)-23.45E-06      

( X1.9)    0.0000  ( X2.6)-3.622E-09  ( X2.7) 23.76E-06  ( X2.8) 23.76E-06      

( X2.9)    0.0000  (X1.10)    -.3986  (X1.11)  -14.6550  (X1.12)  -14.6550      

(X1.53)   12.8000  (X1.54)  -12.8000  (X1.90)-10.93E-06  (X1.91)   25.0000      

(X1.92)  -25.0000  (X1.99)    0.0000  (X2.10)    -.3986  (X2.11)  -14.6550      

(X2.12)  -14.6550  (X2.53)   12.8000  (X2.54)  -12.8000  (X2.90) 12.09E-06      

(X2.91)   25.0000  (X2.92)  -25.0000  (X2.99)    0.0000  




    VOLTAGE SOURCE CURRENTS
    NAME         CURRENT

    V1          -2.253E-11
    V2           1.075E-09
    Vcc         -2.839E-02
    Vee          2.839E-02
    X1.VB        3.554E-14
    X1.VC        1.280E-11
    X1.VE        1.280E-11
    X1.VLIM     -1.093E-08
    X1.VLP      -2.500E-11
    X1.VLN      -2.500E-11
    X2.VB       -3.622E-14
    X2.VC        1.280E-11
    X2.VE        1.280E-11
    X2.VLIM      1.209E-08
    X2.VLP      -2.500E-11
    X2.VLN      -2.500E-11

    TOTAL POWER DISSIPATION   8.52E-01  WATTS


**** 10/18/18 12:51:05 ******* PSpice Lite (March 2016) ******* ID# 10813 ****

 regelbareverschilversterkerlin


 ****     SMALL SIGNAL BIAS SOLUTION       TEMPERATURE =   27.000 DEG C

 ****     CURRENT STEP                     RMOD R =    4.0000E+03


******************************************************************************



 NODE   VOLTAGE     NODE   VOLTAGE     NODE   VOLTAGE     NODE   VOLTAGE


(    1)-225.3E-09  (    2) 10.75E-06  (    3)   15.0000  (    4)  -15.0000      

(    5)-32.73E-06  (    6)    0.0000  (    7)    0.0000  (    8) 21.94E-06      

(    9) 10.97E-06  ( X1.6) 5.101E-09  ( X1.7)-34.37E-06  ( X1.8)-34.37E-06      

( X1.9)    0.0000  ( X2.6)-3.622E-09  ( X2.7) 23.76E-06  ( X2.8) 23.76E-06      

( X2.9)    0.0000  (X1.10)    -.3986  (X1.11)  -14.6550  (X1.12)  -14.6550      

(X1.53)   12.8000  (X1.54)  -12.8000  (X1.90)-10.93E-06  (X1.91)   25.0000      

(X1.92)  -25.0000  (X1.99)    0.0000  (X2.10)    -.3986  (X2.11)  -14.6550      

(X2.12)  -14.6550  (X2.53)   12.8000  (X2.54)  -12.8000  (X2.90) 12.09E-06      

(X2.91)   25.0000  (X2.92)  -25.0000  (X2.99)    0.0000  




    VOLTAGE SOURCE CURRENTS
    NAME         CURRENT

    V1          -2.253E-11
    V2           1.075E-09
    Vcc         -2.839E-02
    Vee          2.839E-02
    X1.VB        5.101E-14
    X1.VC        1.280E-11
    X1.VE        1.280E-11
    X1.VLIM     -1.093E-08
    X1.VLP      -2.500E-11
    X1.VLN      -2.500E-11
    X2.VB       -3.622E-14
    X2.VC        1.280E-11
    X2.VE        1.280E-11
    X2.VLIM      1.209E-08
    X2.VLP      -2.500E-11
    X2.VLN      -2.500E-11

    TOTAL POWER DISSIPATION   8.52E-01  WATTS


**** 10/18/18 12:51:05 ******* PSpice Lite (March 2016) ******* ID# 10813 ****

 regelbareverschilversterkerlin


 ****     SMALL SIGNAL BIAS SOLUTION       TEMPERATURE =   27.000 DEG C

 ****     CURRENT STEP                     RMOD R =    5.0000E+03


******************************************************************************



 NODE   VOLTAGE     NODE   VOLTAGE     NODE   VOLTAGE     NODE   VOLTAGE


(    1)-225.3E-09  (    2) 10.75E-06  (    3)   15.0000  (    4)  -15.0000      

(    5)-43.66E-06  (    6)    0.0000  (    7)    0.0000  (    8) 21.94E-06      

(    9) 10.97E-06  ( X1.6) 6.648E-09  ( X1.7)-45.30E-06  ( X1.8)-45.30E-06      

( X1.9)    0.0000  ( X2.6)-3.622E-09  ( X2.7) 23.76E-06  ( X2.8) 23.76E-06      

( X2.9)    0.0000  (X1.10)    -.3986  (X1.11)  -14.6550  (X1.12)  -14.6550      

(X1.53)   12.8000  (X1.54)  -12.8000  (X1.90)-10.93E-06  (X1.91)   25.0000      

(X1.92)  -25.0000  (X1.99)    0.0000  (X2.10)    -.3986  (X2.11)  -14.6550      

(X2.12)  -14.6550  (X2.53)   12.8000  (X2.54)  -12.8000  (X2.90) 12.09E-06      

(X2.91)   25.0000  (X2.92)  -25.0000  (X2.99)    0.0000  




    VOLTAGE SOURCE CURRENTS
    NAME         CURRENT

    V1          -2.253E-11
    V2           1.075E-09
    Vcc         -2.839E-02
    Vee          2.839E-02
    X1.VB        6.648E-14
    X1.VC        1.280E-11
    X1.VE        1.280E-11
    X1.VLIM     -1.093E-08
    X1.VLP      -2.500E-11
    X1.VLN      -2.500E-11
    X2.VB       -3.623E-14
    X2.VC        1.280E-11
    X2.VE        1.280E-11
    X2.VLIM      1.209E-08
    X2.VLP      -2.500E-11
    X2.VLN      -2.500E-11

    TOTAL POWER DISSIPATION   8.52E-01  WATTS


**** 10/18/18 12:51:05 ******* PSpice Lite (March 2016) ******* ID# 10813 ****

 regelbareverschilversterkerlin


 ****     SMALL SIGNAL BIAS SOLUTION       TEMPERATURE =   27.000 DEG C

 ****     CURRENT STEP                     RMOD R =    6.0000E+03


******************************************************************************



 NODE   VOLTAGE     NODE   VOLTAGE     NODE   VOLTAGE     NODE   VOLTAGE


(    1)-225.3E-09  (    2) 10.75E-06  (    3)   15.0000  (    4)  -15.0000      

(    5)-54.59E-06  (    6)    0.0000  (    7)    0.0000  (    8) 21.94E-06      

(    9) 10.97E-06  ( X1.6) 8.196E-09  ( X1.7)-56.23E-06  ( X1.8)-56.23E-06      

( X1.9)    0.0000  ( X2.6)-3.623E-09  ( X2.7) 23.76E-06  ( X2.8) 23.76E-06      

( X2.9)    0.0000  (X1.10)    -.3986  (X1.11)  -14.6550  (X1.12)  -14.6550      

(X1.53)   12.8000  (X1.54)  -12.8000  (X1.90)-10.93E-06  (X1.91)   25.0000      

(X1.92)  -25.0000  (X1.99)    0.0000  (X2.10)    -.3986  (X2.11)  -14.6550      

(X2.12)  -14.6550  (X2.53)   12.8000  (X2.54)  -12.8000  (X2.90) 12.09E-06      

(X2.91)   25.0000  (X2.92)  -25.0000  (X2.99)    0.0000  




    VOLTAGE SOURCE CURRENTS
    NAME         CURRENT

    V1          -2.253E-11
    V2           1.075E-09
    Vcc         -2.839E-02
    Vee          2.839E-02
    X1.VB        8.196E-14
    X1.VC        1.280E-11
    X1.VE        1.280E-11
    X1.VLIM     -1.093E-08
    X1.VLP      -2.500E-11
    X1.VLN      -2.500E-11
    X2.VB       -3.623E-14
    X2.VC        1.280E-11
    X2.VE        1.280E-11
    X2.VLIM      1.209E-08
    X2.VLP      -2.500E-11
    X2.VLN      -2.500E-11

    TOTAL POWER DISSIPATION   8.52E-01  WATTS


**** 10/18/18 12:51:05 ******* PSpice Lite (March 2016) ******* ID# 10813 ****

 regelbareverschilversterkerlin


 ****     SMALL SIGNAL BIAS SOLUTION       TEMPERATURE =   27.000 DEG C

 ****     CURRENT STEP                     RMOD R =    7.0000E+03


******************************************************************************



 NODE   VOLTAGE     NODE   VOLTAGE     NODE   VOLTAGE     NODE   VOLTAGE


(    1)-225.3E-09  (    2) 10.75E-06  (    3)   15.0000  (    4)  -15.0000      

(    5)-65.51E-06  (    6)    0.0000  (    7)    0.0000  (    8) 21.94E-06      

(    9) 10.97E-06  ( X1.6) 9.743E-09  ( X1.7)-67.15E-06  ( X1.8)-67.15E-06      

( X1.9)    0.0000  ( X2.6)-3.623E-09  ( X2.7) 23.76E-06  ( X2.8) 23.76E-06      

( X2.9)    0.0000  (X1.10)    -.3986  (X1.11)  -14.6550  (X1.12)  -14.6550      

(X1.53)   12.8000  (X1.54)  -12.8000  (X1.90)-10.93E-06  (X1.91)   25.0000      

(X1.92)  -25.0000  (X1.99)    0.0000  (X2.10)    -.3986  (X2.11)  -14.6550      

(X2.12)  -14.6550  (X2.53)   12.8000  (X2.54)  -12.8000  (X2.90) 12.09E-06      

(X2.91)   25.0000  (X2.92)  -25.0000  (X2.99)    0.0000  




    VOLTAGE SOURCE CURRENTS
    NAME         CURRENT

    V1          -2.253E-11
    V2           1.075E-09
    Vcc         -2.839E-02
    Vee          2.839E-02
    X1.VB        9.743E-14
    X1.VC        1.280E-11
    X1.VE        1.280E-11
    X1.VLIM     -1.093E-08
    X1.VLP      -2.500E-11
    X1.VLN      -2.500E-11
    X2.VB       -3.623E-14
    X2.VC        1.280E-11
    X2.VE        1.280E-11
    X2.VLIM      1.209E-08
    X2.VLP      -2.500E-11
    X2.VLN      -2.500E-11

    TOTAL POWER DISSIPATION   8.52E-01  WATTS


**** 10/18/18 12:51:05 ******* PSpice Lite (March 2016) ******* ID# 10813 ****

 regelbareverschilversterkerlin


 ****     SMALL SIGNAL BIAS SOLUTION       TEMPERATURE =   27.000 DEG C

 ****     CURRENT STEP                     RMOD R =    8.0000E+03


******************************************************************************



 NODE   VOLTAGE     NODE   VOLTAGE     NODE   VOLTAGE     NODE   VOLTAGE


(    1)-225.3E-09  (    2) 10.75E-06  (    3)   15.0000  (    4)  -15.0000      

(    5)-76.44E-06  (    6)    0.0000  (    7)    0.0000  (    8) 21.94E-06      

(    9) 10.97E-06  ( X1.6) 11.29E-09  ( X1.7)-78.08E-06  ( X1.8)-78.08E-06      

( X1.9)    0.0000  ( X2.6)-3.623E-09  ( X2.7) 23.76E-06  ( X2.8) 23.76E-06      

( X2.9)    0.0000  (X1.10)    -.3986  (X1.11)  -14.6550  (X1.12)  -14.6550      

(X1.53)   12.8000  (X1.54)  -12.8000  (X1.90)-10.93E-06  (X1.91)   25.0000      

(X1.92)  -25.0000  (X1.99)    0.0000  (X2.10)    -.3986  (X2.11)  -14.6550      

(X2.12)  -14.6550  (X2.53)   12.8000  (X2.54)  -12.8000  (X2.90) 12.09E-06      

(X2.91)   25.0000  (X2.92)  -25.0000  (X2.99)    0.0000  




    VOLTAGE SOURCE CURRENTS
    NAME         CURRENT

    V1          -2.253E-11
    V2           1.075E-09
    Vcc         -2.839E-02
    Vee          2.839E-02
    X1.VB        1.129E-13
    X1.VC        1.280E-11
    X1.VE        1.280E-11
    X1.VLIM     -1.093E-08
    X1.VLP      -2.500E-11
    X1.VLN      -2.500E-11
    X2.VB       -3.623E-14
    X2.VC        1.280E-11
    X2.VE        1.280E-11
    X2.VLIM      1.209E-08
    X2.VLP      -2.500E-11
    X2.VLN      -2.500E-11

    TOTAL POWER DISSIPATION   8.52E-01  WATTS


**** 10/18/18 12:51:05 ******* PSpice Lite (March 2016) ******* ID# 10813 ****

 regelbareverschilversterkerlin


 ****     SMALL SIGNAL BIAS SOLUTION       TEMPERATURE =   27.000 DEG C

 ****     CURRENT STEP                     RMOD R =    9.0000E+03


******************************************************************************



 NODE   VOLTAGE     NODE   VOLTAGE     NODE   VOLTAGE     NODE   VOLTAGE


(    1)-225.3E-09  (    2) 10.75E-06  (    3)   15.0000  (    4)  -15.0000      

(    5)-87.37E-06  (    6)    0.0000  (    7)    0.0000  (    8) 21.94E-06      

(    9) 10.97E-06  ( X1.6) 12.84E-09  ( X1.7)-89.01E-06  ( X1.8)-89.01E-06      

( X1.9)    0.0000  ( X2.6)-3.623E-09  ( X2.7) 23.76E-06  ( X2.8) 23.76E-06      

( X2.9)    0.0000  (X1.10)    -.3986  (X1.11)  -14.6550  (X1.12)  -14.6550      

(X1.53)   12.8000  (X1.54)  -12.8000  (X1.90)-10.93E-06  (X1.91)   25.0000      

(X1.92)  -25.0000  (X1.99)    0.0000  (X2.10)    -.3986  (X2.11)  -14.6550      

(X2.12)  -14.6550  (X2.53)   12.8000  (X2.54)  -12.8000  (X2.90) 12.09E-06      

(X2.91)   25.0000  (X2.92)  -25.0000  (X2.99)    0.0000  




    VOLTAGE SOURCE CURRENTS
    NAME         CURRENT

    V1          -2.253E-11
    V2           1.075E-09
    Vcc         -2.839E-02
    Vee          2.839E-02
    X1.VB        1.284E-13
    X1.VC        1.280E-11
    X1.VE        1.280E-11
    X1.VLIM     -1.093E-08
    X1.VLP      -2.500E-11
    X1.VLN      -2.500E-11
    X2.VB       -3.623E-14
    X2.VC        1.280E-11
    X2.VE        1.280E-11
    X2.VLIM      1.209E-08
    X2.VLP      -2.500E-11
    X2.VLN      -2.500E-11

    TOTAL POWER DISSIPATION   8.52E-01  WATTS


**** 10/18/18 12:51:05 ******* PSpice Lite (March 2016) ******* ID# 10813 ****

 regelbareverschilversterkerlin


 ****     SMALL SIGNAL BIAS SOLUTION       TEMPERATURE =   27.000 DEG C

 ****     CURRENT STEP                     RMOD R =   10.0000E+03


******************************************************************************



 NODE   VOLTAGE     NODE   VOLTAGE     NODE   VOLTAGE     NODE   VOLTAGE


(    1)-225.3E-09  (    2) 10.75E-06  (    3)   15.0000  (    4)  -15.0000      

(    5)-98.30E-06  (    6)    0.0000  (    7)    0.0000  (    8) 21.94E-06      

(    9) 10.97E-06  ( X1.6) 14.39E-09  ( X1.7)-99.94E-06  ( X1.8)-99.94E-06      

( X1.9)    0.0000  ( X2.6)-3.623E-09  ( X2.7) 23.76E-06  ( X2.8) 23.76E-06      

( X2.9)    0.0000  (X1.10)    -.3986  (X1.11)  -14.6550  (X1.12)  -14.6550      

(X1.53)   12.8000  (X1.54)  -12.8000  (X1.90)-10.93E-06  (X1.91)   25.0000      

(X1.92)  -25.0000  (X1.99)    0.0000  (X2.10)    -.3986  (X2.11)  -14.6550      

(X2.12)  -14.6550  (X2.53)   12.8000  (X2.54)  -12.8000  (X2.90) 12.09E-06      

(X2.91)   25.0000  (X2.92)  -25.0000  (X2.99)    0.0000  




    VOLTAGE SOURCE CURRENTS
    NAME         CURRENT

    V1          -2.253E-11
    V2           1.075E-09
    Vcc         -2.839E-02
    Vee          2.839E-02
    X1.VB        1.439E-13
    X1.VC        1.280E-11
    X1.VE        1.280E-11
    X1.VLIM     -1.093E-08
    X1.VLP      -2.500E-11
    X1.VLN      -2.500E-11
    X2.VB       -3.623E-14
    X2.VC        1.280E-11
    X2.VE        1.280E-11
    X2.VLIM      1.209E-08
    X2.VLP      -2.500E-11
    X2.VLN      -2.500E-11

    TOTAL POWER DISSIPATION   8.52E-01  WATTS



          JOB CONCLUDED

**** 10/18/18 12:51:05 ******* PSpice Lite (March 2016) ******* ID# 10813 ****

 regelbareverschilversterkerlin


 ****     JOB STATISTICS SUMMARY

 ****     CURRENT STEP                     RMOD R =   10.0000E+03


******************************************************************************



