
**** 04/02/19 11:36:01 ******* PSpice Lite (March 2016) ******* ID# 10813 ****

 actiefbpf


 ****     CIRCUIT DESCRIPTION


******************************************************************************



R1      6       7       10k
R2      7       5       100k
R3      1       0       10k
R4      2       5       100k
R5      2       0       10k
C1      7       1       100n
C2      7       0       1n
V1      6       0       AC      1
Vcc     3       0       DC      15
Vee     4       0       DC      -15
X1      1       2       3       4       5       TL072
.AC DEC 1000    3       300k
.PROBE

* TL072 OPERATIONAL AMPLIFIER "MACROMODEL" SUBCIRCUIT
* CREATED USING PARTS RELEASE 4.01 ON 06/16/89 AT 13:08
* (REV N/A)      SUPPLY VOLTAGE: +/-15V
* CONNECTIONS:   NON-INVERTING INPUT
*                | INVERTING INPUT
*                | | POSITIVE POWER SUPPLY
*                | | | NEGATIVE POWER SUPPLY
*                | | | | OUTPUT
*                | | | | |
.SUBCKT TL072    1 2 3 4 5
*
  C1   11 12 3.498E-12
  C2    6  7 15.00E-12
  DC    5 53 DX
  DE   54  5 DX
  DLP  90 91 DX
  DLN  92 90 DX
  DP    4  3 DX
  EGND 99  0 POLY(2) (3,0) (4,0) 0 .5 .5
  FB    7 99 POLY(5) VB VC VE VLP VLN 0 4.715E6 -5E6 5E6 5E6 -5E6
  GA    6  0 11 12 282.8E-6
  GCM   0  6 10 99 8.942E-9
  ISS   3 10 DC 195.0E-6
  HLIM 90  0 VLIM 1K
  J1   11  2 10 JX
  J2   12  1 10 JX
  R2    6  9 100.0E3
  RD1   4 11 3.536E3
  RD2   4 12 3.536E3
  RO1   8  5 150
  RO2   7 99 150
  RP    3  4 2.143E3
  RSS  10 99 1.026E6
  VB    9  0 DC 0
  VC    3 53 DC 2.200
  VE   54  4 DC 2.200
  VLIM  7  8 DC 0
  VLP  91  0 DC 25
  VLN   0 92 DC 25
.MODEL DX D(IS=800.0E-18)
.MODEL JX PJF(IS=15.00E-12 BETA=270.1E-6 VTO=-1)
.ENDS

.END

**** 04/02/19 11:36:01 ******* PSpice Lite (March 2016) ******* ID# 10813 ****

 actiefbpf


 ****     Diode MODEL PARAMETERS


******************************************************************************




               X1.DX           
          IS  800.000000E-18 


**** 04/02/19 11:36:01 ******* PSpice Lite (March 2016) ******* ID# 10813 ****

 actiefbpf


 ****     Junction FET MODEL PARAMETERS


******************************************************************************




               X1.JX           
               PJF             
         VTO   -1            
        BETA  270.100000E-06 
          IS   15.000000E-12 


**** 04/02/19 11:36:01 ******* PSpice Lite (March 2016) ******* ID# 10813 ****

 actiefbpf


 ****     SMALL SIGNAL BIAS SOLUTION       TEMPERATURE =   27.000 DEG C


******************************************************************************



 NODE   VOLTAGE     NODE   VOLTAGE     NODE   VOLTAGE     NODE   VOLTAGE


(    1)-450.5E-09  (    2) 10.52E-06  (    3)   15.0000  (    4)  -15.0000      

(    5) 120.2E-06  (    6)    0.0000  (    7) 10.93E-06  ( X1.6)-17.12E-09      

( X1.7) 120.6E-06  ( X1.8) 120.6E-06  ( X1.9)    0.0000  (X1.10)    -.3986      

(X1.11)  -14.6550  (X1.12)  -14.6550  (X1.53)   12.8000  (X1.54)  -12.8000      

(X1.90) 2.190E-06  (X1.91)   25.0000  (X1.92)  -25.0000  (X1.99)    0.0000  




    VOLTAGE SOURCE CURRENTS
    NAME         CURRENT

    V1           1.093E-09
    Vcc         -1.419E-02
    Vee          1.419E-02
    X1.VB       -1.712E-13
    X1.VC        1.280E-11
    X1.VE        1.280E-11
    X1.VLIM      2.190E-09
    X1.VLP      -2.500E-11
    X1.VLN      -2.500E-11

    TOTAL POWER DISSIPATION   4.26E-01  WATTS



          JOB CONCLUDED

**** 04/02/19 11:36:01 ******* PSpice Lite (March 2016) ******* ID# 10813 ****

 actiefbpf


 ****     JOB STATISTICS SUMMARY


******************************************************************************



  Total job time (using Solver 1)   =         .31
