
**** 10/25/18 13:37:50 ******* PSpice Lite (March 2016) ******* ID# 10813 ****

 howland


 ****     CIRCUIT DESCRIPTION


******************************************************************************



R1      0       1       10k
R2      1       5       10k
R3      6       2       10k
R4      2       5       10k
Rg  2   0       RMOD    100
X1      1       2       3       4       5       TL072
Vcc     3       0       DC      15
Vee     4       0       DC      -15
V1      6       0       AC      5

.AC DEC 1000    3       300k
.PROBE

* POTENTIOMETER
.MODEL RMOD RES(R=1k)
.STEP RES RMOD(R) 1k,10k,1k

* TL072 OPERATIONAL AMPLIFIER "MACROMODEL" SUBCIRCUIT
* CREATED USING PARTS RELEASE 4.01 ON 06/16/89 AT 13:08
* (REV N/A)      SUPPLY VOLTAGE: +/-15V
* CONNECTIONS:   NON-INVERTING INPUT
*                | INVERTING INPUT
*                | | POSITIVE POWER SUPPLY
*                | | | NEGATIVE POWER SUPPLY
*                | | | | OUTPUT
*                | | | | |
.SUBCKT TL072    1 2 3 4 5
*
  C1   11 12 3.498E-12
  C2    6  7 15.00E-12
  DC    5 53 DX
  DE   54  5 DX
  DLP  90 91 DX
  DLN  92 90 DX
  DP    4  3 DX
  EGND 99  0 POLY(2) (3,0) (4,0) 0 .5 .5
  FB    7 99 POLY(5) VB VC VE VLP VLN 0 4.715E6 -5E6 5E6 5E6 -5E6
  GA    6  0 11 12 282.8E-6
  GCM   0  6 10 99 8.942E-9
  ISS   3 10 DC 195.0E-6
  HLIM 90  0 VLIM 1K
  J1   11  2 10 JX
  J2   12  1 10 JX
  R2    6  9 100.0E3
  RD1   4 11 3.536E3
  RD2   4 12 3.536E3
  RO1   8  5 150
  RO2   7 99 150
  RP    3  4 2.143E3
  RSS  10 99 1.026E6
  VB    9  0 DC 0
  VC    3 53 DC 2.200
  VE   54  4 DC 2.200
  VLIM  7  8 DC 0
  VLP  91  0 DC 25
  VLN   0 92 DC 25
.MODEL DX D(IS=800.0E-18)
.MODEL JX PJF(IS=15.00E-12 BETA=270.1E-6 VTO=-1)
.ENDS

.END

**** 10/25/18 13:37:50 ******* PSpice Lite (March 2016) ******* ID# 10813 ****

 howland


 ****     Diode MODEL PARAMETERS


******************************************************************************




               X1.DX           
          IS  800.000000E-18 


**** 10/25/18 13:37:50 ******* PSpice Lite (March 2016) ******* ID# 10813 ****

 howland


 ****     Junction FET MODEL PARAMETERS


******************************************************************************




               X1.JX           
               PJF             
         VTO   -1            
        BETA  270.100000E-06 
          IS   15.000000E-12 


**** 10/25/18 13:37:50 ******* PSpice Lite (March 2016) ******* ID# 10813 ****

 howland


 ****     Resistor MODEL PARAMETERS


******************************************************************************




               RMOD            
           R    1.000000E+03 


**** 10/25/18 13:37:50 ******* PSpice Lite (March 2016) ******* ID# 10813 ****

 howland


 ****     SMALL SIGNAL BIAS SOLUTION       TEMPERATURE =   27.000 DEG C

 ****     CURRENT STEP                     RMOD R =    1.0000E+03


******************************************************************************



 NODE   VOLTAGE     NODE   VOLTAGE     NODE   VOLTAGE     NODE   VOLTAGE


(    1)-230.6E-06  (    2)-219.6E-06  (    3)   15.0000  (    4)  -15.0000      

(    5)-460.7E-06  (    6)    0.0000  ( X1.6) 67.25E-09  ( X1.7)-467.8E-06      

( X1.8)-467.8E-06  ( X1.9)    0.0000  (X1.10)    -.3988  (X1.11)  -14.6550      

(X1.12)  -14.6550  (X1.53)   12.8000  (X1.54)  -12.8000  (X1.90)-47.13E-06      

(X1.91)   25.0000  (X1.92)  -25.0000  (X1.99)    0.0000  




    VOLTAGE SOURCE CURRENTS
    NAME         CURRENT

    Vcc         -1.419E-02
    Vee          1.419E-02
    V1          -2.196E-08
    X1.VB        6.725E-13
    X1.VC        1.280E-11
    X1.VE        1.280E-11
    X1.VLIM     -4.713E-08
    X1.VLP      -2.500E-11
    X1.VLN      -2.500E-11

    TOTAL POWER DISSIPATION   4.26E-01  WATTS


**** 10/25/18 13:37:50 ******* PSpice Lite (March 2016) ******* ID# 10813 ****

 howland


 ****     SMALL SIGNAL BIAS SOLUTION       TEMPERATURE =   27.000 DEG C

 ****     CURRENT STEP                     RMOD R =    2.0000E+03


******************************************************************************



 NODE   VOLTAGE     NODE   VOLTAGE     NODE   VOLTAGE     NODE   VOLTAGE


(    1)-450.5E-06  (    2)-439.5E-06  (    3)   15.0000  (    4)  -15.0000      

(    5)-900.5E-06  (    6)    0.0000  ( X1.6) 131.4E-09  ( X1.7)-914.2E-06      

( X1.8)-914.2E-06  ( X1.9)    0.0000  (X1.10)    -.3990  (X1.11)  -14.6550      

(X1.12)  -14.6550  (X1.53)   12.8000  (X1.54)  -12.8000  (X1.90)-91.10E-06      

(X1.91)   25.0000  (X1.92)  -25.0000  (X1.99)    0.0000  




    VOLTAGE SOURCE CURRENTS
    NAME         CURRENT

    Vcc         -1.419E-02
    Vee          1.419E-02
    V1          -4.395E-08
    X1.VB        1.314E-12
    X1.VC        1.280E-11
    X1.VE        1.280E-11
    X1.VLIM     -9.110E-08
    X1.VLP      -2.500E-11
    X1.VLN      -2.500E-11

    TOTAL POWER DISSIPATION   4.26E-01  WATTS


**** 10/25/18 13:37:50 ******* PSpice Lite (March 2016) ******* ID# 10813 ****

 howland


 ****     SMALL SIGNAL BIAS SOLUTION       TEMPERATURE =   27.000 DEG C

 ****     CURRENT STEP                     RMOD R =    3.0000E+03


******************************************************************************



 NODE   VOLTAGE     NODE   VOLTAGE     NODE   VOLTAGE     NODE   VOLTAGE


(    1)-670.7E-06  (    2)-659.7E-06  (    3)   15.0000  (    4)  -15.0000      

(    5)    -.0013  (    6)    0.0000  ( X1.6) 195.6E-09  ( X1.7)    -.0014      

( X1.8)    -.0014  ( X1.9)    0.0000  (X1.10)    -.3993  (X1.11)  -14.6550      

(X1.12)  -14.6550  (X1.53)   12.8000  (X1.54)  -12.8000  (X1.90)-135.2E-06      

(X1.91)   25.0000  (X1.92)  -25.0000  (X1.99)    0.0000  




    VOLTAGE SOURCE CURRENTS
    NAME         CURRENT

    Vcc         -1.419E-02
    Vee          1.419E-02
    V1          -6.597E-08
    X1.VB        1.956E-12
    X1.VC        1.280E-11
    X1.VE        1.280E-11
    X1.VLIM     -1.352E-07
    X1.VLP      -2.500E-11
    X1.VLN      -2.500E-11

    TOTAL POWER DISSIPATION   4.26E-01  WATTS


**** 10/25/18 13:37:50 ******* PSpice Lite (March 2016) ******* ID# 10813 ****

 howland


 ****     SMALL SIGNAL BIAS SOLUTION       TEMPERATURE =   27.000 DEG C

 ****     CURRENT STEP                     RMOD R =    4.0000E+03


******************************************************************************



 NODE   VOLTAGE     NODE   VOLTAGE     NODE   VOLTAGE     NODE   VOLTAGE


(    1)-891.3E-06  (    2)-880.3E-06  (    3)   15.0000  (    4)  -15.0000      

(    5)    -.0018  (    6)    0.0000  ( X1.6) 260.0E-09  ( X1.7)    -.0018      

( X1.8)    -.0018  ( X1.9)    0.0000  (X1.10)    -.3995  (X1.11)  -14.6550      

(X1.12)  -14.6550  (X1.53)   12.8000  (X1.54)  -12.8000  (X1.90)-179.3E-06      

(X1.91)   25.0000  (X1.92)  -25.0000  (X1.99)    0.0000  




    VOLTAGE SOURCE CURRENTS
    NAME         CURRENT

    Vcc         -1.419E-02
    Vee          1.419E-02
    V1          -8.803E-08
    X1.VB        2.600E-12
    X1.VC        1.280E-11
    X1.VE        1.280E-11
    X1.VLIM     -1.793E-07
    X1.VLP      -2.500E-11
    X1.VLN      -2.500E-11

    TOTAL POWER DISSIPATION   4.26E-01  WATTS


**** 10/25/18 13:37:50 ******* PSpice Lite (March 2016) ******* ID# 10813 ****

 howland


 ****     SMALL SIGNAL BIAS SOLUTION       TEMPERATURE =   27.000 DEG C

 ****     CURRENT STEP                     RMOD R =    5.0000E+03


******************************************************************************



 NODE   VOLTAGE     NODE   VOLTAGE     NODE   VOLTAGE     NODE   VOLTAGE


(    1)    -.0011  (    2)    -.0011  (    3)   15.0000  (    4)  -15.0000      

(    5)    -.0022  (    6)    0.0000  ( X1.6) 324.4E-09  ( X1.7)    -.0023      

( X1.8)    -.0023  ( X1.9)    0.0000  (X1.10)    -.3997  (X1.11)  -14.6550      

(X1.12)  -14.6550  (X1.53)   12.8000  (X1.54)  -12.8000  (X1.90)-223.4E-06      

(X1.91)   25.0000  (X1.92)  -25.0000  (X1.99)    0.0000  




    VOLTAGE SOURCE CURRENTS
    NAME         CURRENT

    Vcc         -1.419E-02
    Vee          1.419E-02
    V1          -1.101E-07
    X1.VB        3.244E-12
    X1.VC        1.280E-11
    X1.VE        1.280E-11
    X1.VLIM     -2.234E-07
    X1.VLP      -2.500E-11
    X1.VLN      -2.500E-11

    TOTAL POWER DISSIPATION   4.26E-01  WATTS


**** 10/25/18 13:37:50 ******* PSpice Lite (March 2016) ******* ID# 10813 ****

 howland


 ****     SMALL SIGNAL BIAS SOLUTION       TEMPERATURE =   27.000 DEG C

 ****     CURRENT STEP                     RMOD R =    6.0000E+03


******************************************************************************



 NODE   VOLTAGE     NODE   VOLTAGE     NODE   VOLTAGE     NODE   VOLTAGE


(    1)    -.0013  (    2)    -.0013  (    3)   15.0000  (    4)  -15.0000      

(    5)    -.0027  (    6)    0.0000  ( X1.6) 389.0E-09  ( X1.7)    -.0027      

( X1.8)    -.0027  ( X1.9)    0.0000  (X1.10)    -.3999  (X1.11)  -14.6550      

(X1.12)  -14.6550  (X1.53)   12.8000  (X1.54)  -12.8000  (X1.90)-267.7E-06      

(X1.91)   25.0000  (X1.92)  -25.0000  (X1.99)    0.0000  




    VOLTAGE SOURCE CURRENTS
    NAME         CURRENT

    Vcc         -1.419E-02
    Vee          1.419E-02
    V1          -1.322E-07
    X1.VB        3.890E-12
    X1.VC        1.280E-11
    X1.VE        1.280E-11
    X1.VLIM     -2.677E-07
    X1.VLP      -2.500E-11
    X1.VLN      -2.500E-11

    TOTAL POWER DISSIPATION   4.26E-01  WATTS


**** 10/25/18 13:37:50 ******* PSpice Lite (March 2016) ******* ID# 10813 ****

 howland


 ****     SMALL SIGNAL BIAS SOLUTION       TEMPERATURE =   27.000 DEG C

 ****     CURRENT STEP                     RMOD R =    7.0000E+03


******************************************************************************



 NODE   VOLTAGE     NODE   VOLTAGE     NODE   VOLTAGE     NODE   VOLTAGE


(    1)    -.0016  (    2)    -.0015  (    3)   15.0000  (    4)  -15.0000      

(    5)    -.0031  (    6)    0.0000  ( X1.6) 453.6E-09  ( X1.7)    -.0032      

( X1.8)    -.0032  ( X1.9)    0.0000  (X1.10)    -.4001  (X1.11)  -14.6550      

(X1.12)  -14.6550  (X1.53)   12.8000  (X1.54)  -12.8000  (X1.90)-312.0E-06      

(X1.91)   25.0000  (X1.92)  -25.0000  (X1.99)    0.0000  




    VOLTAGE SOURCE CURRENTS
    NAME         CURRENT

    Vcc         -1.419E-02
    Vee          1.419E-02
    V1          -1.544E-07
    X1.VB        4.536E-12
    X1.VC        1.280E-11
    X1.VE        1.280E-11
    X1.VLIM     -3.120E-07
    X1.VLP      -2.500E-11
    X1.VLN      -2.500E-11

    TOTAL POWER DISSIPATION   4.26E-01  WATTS


**** 10/25/18 13:37:50 ******* PSpice Lite (March 2016) ******* ID# 10813 ****

 howland


 ****     SMALL SIGNAL BIAS SOLUTION       TEMPERATURE =   27.000 DEG C

 ****     CURRENT STEP                     RMOD R =    8.0000E+03


******************************************************************************



 NODE   VOLTAGE     NODE   VOLTAGE     NODE   VOLTAGE     NODE   VOLTAGE


(    1)    -.0018  (    2)    -.0018  (    3)   15.0000  (    4)  -15.0000      

(    5)    -.0036  (    6)    0.0000  ( X1.6) 518.3E-09  ( X1.7)    -.0036      

( X1.8)    -.0036  ( X1.9)    0.0000  (X1.10)    -.4004  (X1.11)  -14.6550      

(X1.12)  -14.6550  (X1.53)   12.8000  (X1.54)  -12.8000  (X1.90)-356.4E-06      

(X1.91)   25.0000  (X1.92)  -25.0000  (X1.99)    0.0000  




    VOLTAGE SOURCE CURRENTS
    NAME         CURRENT

    Vcc         -1.419E-02
    Vee          1.419E-02
    V1          -1.766E-07
    X1.VB        5.183E-12
    X1.VC        1.280E-11
    X1.VE        1.280E-11
    X1.VLIM     -3.564E-07
    X1.VLP      -2.500E-11
    X1.VLN      -2.500E-11

    TOTAL POWER DISSIPATION   4.26E-01  WATTS


**** 10/25/18 13:37:50 ******* PSpice Lite (March 2016) ******* ID# 10813 ****

 howland


 ****     SMALL SIGNAL BIAS SOLUTION       TEMPERATURE =   27.000 DEG C

 ****     CURRENT STEP                     RMOD R =    9.0000E+03


******************************************************************************



 NODE   VOLTAGE     NODE   VOLTAGE     NODE   VOLTAGE     NODE   VOLTAGE


(    1)    -.0020  (    2)    -.0020  (    3)   15.0000  (    4)  -15.0000      

(    5)    -.0040  (    6)    0.0000  ( X1.6) 583.1E-09  ( X1.7)    -.0041      

( X1.8)    -.0041  ( X1.9)    0.0000  (X1.10)    -.4006  (X1.11)  -14.6550      

(X1.12)  -14.6550  (X1.53)   12.8000  (X1.54)  -12.8000  (X1.90)-400.8E-06      

(X1.91)   25.0000  (X1.92)  -25.0000  (X1.99)    0.0000  




    VOLTAGE SOURCE CURRENTS
    NAME         CURRENT

    Vcc         -1.419E-02
    Vee          1.419E-02
    V1          -1.988E-07
    X1.VB        5.831E-12
    X1.VC        1.280E-11
    X1.VE        1.280E-11
    X1.VLIM     -4.008E-07
    X1.VLP      -2.500E-11
    X1.VLN      -2.500E-11

    TOTAL POWER DISSIPATION   4.26E-01  WATTS


**** 10/25/18 13:37:50 ******* PSpice Lite (March 2016) ******* ID# 10813 ****

 howland


 ****     SMALL SIGNAL BIAS SOLUTION       TEMPERATURE =   27.000 DEG C

 ****     CURRENT STEP                     RMOD R =   10.0000E+03


******************************************************************************



 NODE   VOLTAGE     NODE   VOLTAGE     NODE   VOLTAGE     NODE   VOLTAGE


(    1)    -.0022  (    2)    -.0022  (    3)   15.0000  (    4)  -15.0000      

(    5)    -.0044  (    6)    0.0000  ( X1.6) 648.0E-09  ( X1.7)    -.0045      

( X1.8)    -.0045  ( X1.9)    0.0000  (X1.10)    -.4008  (X1.11)  -14.6550      

(X1.12)  -14.6550  (X1.53)   12.8000  (X1.54)  -12.8000  (X1.90)-445.3E-06      

(X1.91)   25.0000  (X1.92)  -25.0000  (X1.99)    0.0000  




    VOLTAGE SOURCE CURRENTS
    NAME         CURRENT

    Vcc         -1.419E-02
    Vee          1.419E-02
    V1          -2.210E-07
    X1.VB        6.480E-12
    X1.VC        1.281E-11
    X1.VE        1.280E-11
    X1.VLIM     -4.453E-07
    X1.VLP      -2.500E-11
    X1.VLN      -2.500E-11

    TOTAL POWER DISSIPATION   4.26E-01  WATTS



          JOB CONCLUDED

**** 10/25/18 13:37:50 ******* PSpice Lite (March 2016) ******* ID# 10813 ****

 howland


 ****     JOB STATISTICS SUMMARY

 ****     CURRENT STEP                     RMOD R =   10.0000E+03


******************************************************************************



  Total job time (using Solver 1)   =        1.38
