
**** 10/18/18 14:10:18 ******* PSpice Lite (March 2016) ******* ID# 10813 ****

 instrumentatieversterker


 ****     CIRCUIT DESCRIPTION


******************************************************************************



R1      6       1       10k
R2      1       5       10k
R3      7       2       10k
R4      2       0       10k
R5      6       8       10k
Rg      8       9       1000
R6      9       7       10k
X1      2       1       3       4       5       TL072
X2      10      8       3       4       6       TL072
X3      11      9       3       4       7       TL072
V1      10      0       AC      1
V2      11      0       AC      2
Vcc     3       0       DC      15
Vee     4       0       DC      -15

.AC DEC 1000    3       300k
.PROBE

* POTENTIOMETER
*.MODEL RMOD RES(R=1k)
*.STEP RES RMOD(R) 1k,10000,1000

* TL072 OPERATIONAL AMPLIFIER "MACROMODEL" SUBCIRCUIT
* CREATED USING PARTS RELEASE 4.01 ON 06/16/89 AT 13:08
* (REV N/A)      SUPPLY VOLTAGE: +/-15V
* CONNECTIONS:   NON-INVERTING INPUT
*                | INVERTING INPUT
*                | | POSITIVE POWER SUPPLY
*                | | | NEGATIVE POWER SUPPLY
*                | | | | OUTPUT
*                | | | | |
.SUBCKT TL072    1 2 3 4 5
*
  C1   11 12 3.498E-12
  C2    6  7 15.00E-12
  DC    5 53 DX
  DE   54  5 DX
  DLP  90 91 DX
  DLN  92 90 DX
  DP    4  3 DX
  EGND 99  0 POLY(2) (3,0) (4,0) 0 .5 .5
  FB    7 99 POLY(5) VB VC VE VLP VLN 0 4.715E6 -5E6 5E6 5E6 -5E6
  GA    6  0 11 12 282.8E-6
  GCM   0  6 10 99 8.942E-9
  ISS   3 10 DC 195.0E-6
  HLIM 90  0 VLIM 1K
  J1   11  2 10 JX
  J2   12  1 10 JX
  R2    6  9 100.0E3
  RD1   4 11 3.536E3
  RD2   4 12 3.536E3
  RO1   8  5 150
  RO2   7 99 150
  RP    3  4 2.143E3
  RSS  10 99 1.026E6
  VB    9  0 DC 0
  VC    3 53 DC 2.200
  VE   54  4 DC 2.200
  VLIM  7  8 DC 0
  VLP  91  0 DC 25
  VLN   0 92 DC 25
.MODEL DX D(IS=800.0E-18)
.MODEL JX PJF(IS=15.00E-12 BETA=270.1E-6 VTO=-1)
.ENDS

.END

**** 10/18/18 14:10:18 ******* PSpice Lite (March 2016) ******* ID# 10813 ****

 instrumentatieversterker


 ****     Diode MODEL PARAMETERS


******************************************************************************




               X1.DX           X2.DX           X3.DX           
          IS  800.000000E-18  800.000000E-18  800.000000E-18 


**** 10/18/18 14:10:18 ******* PSpice Lite (March 2016) ******* ID# 10813 ****

 instrumentatieversterker


 ****     Junction FET MODEL PARAMETERS


******************************************************************************




               X1.JX           X2.JX           X3.JX           
               PJF             PJF             PJF             
         VTO   -1              -1              -1            
        BETA  270.100000E-06  270.100000E-06  270.100000E-06 
          IS   15.000000E-12   15.000000E-12   15.000000E-12 


**** 10/18/18 14:10:18 ******* PSpice Lite (March 2016) ******* ID# 10813 ****

 instrumentatieversterker


 ****     SMALL SIGNAL BIAS SOLUTION       TEMPERATURE =   27.000 DEG C


******************************************************************************



 NODE   VOLTAGE     NODE   VOLTAGE     NODE   VOLTAGE     NODE   VOLTAGE


(    1) 16.46E-06  (    2) 5.485E-06  (    3)   15.0000  (    4)  -15.0000      

(    5) 21.94E-06  (    6) 11.42E-06  (    7) 11.42E-06  (    8) 10.97E-06      

(    9) 10.97E-06  (   10)    0.0000  (   11)    0.0000  ( X1.6)-3.130E-09      

( X1.7) 22.02E-06  ( X1.8) 22.02E-06  ( X1.9)    0.0000  ( X2.6)-1.598E-09      

( X2.7) 11.35E-06  ( X2.8) 11.35E-06  ( X2.9)    0.0000  ( X3.6)-1.645E-09      

( X3.7) 11.52E-06  ( X3.8) 11.52E-06  ( X3.9)    0.0000  (X1.10)    -.3986      

(X1.11)  -14.6550  (X1.12)  -14.6550  (X1.53)   12.8000  (X1.54)  -12.8000      

(X1.90) 548.5E-09  (X1.91)   25.0000  (X1.92)  -25.0000  (X1.99)    0.0000      

(X2.10)    -.3986  (X2.11)  -14.6550  (X2.12)  -14.6550  (X2.53)   12.8000      

(X2.54)  -12.8000  (X2.90)-458.4E-09  (X2.91)   25.0000  (X2.92)  -25.0000      

(X2.99)    0.0000  (X3.10)    -.3986  (X3.11)  -14.6550  (X3.12)  -14.6550      

(X3.53)   12.8000  (X3.54)  -12.8000  (X3.90) 638.6E-09  (X3.91)   25.0000      

(X3.92)  -25.0000  (X3.99)    0.0000  




    VOLTAGE SOURCE CURRENTS
    NAME         CURRENT

    V1          -4.505E-11
    V2          -4.505E-11
    Vcc         -4.258E-02
    Vee          4.258E-02
    X1.VB       -3.130E-14
    X1.VC        1.280E-11
    X1.VE        1.280E-11
    X1.VLIM      5.485E-10
    X1.VLP      -2.500E-11
    X1.VLN      -2.500E-11
    X2.VB       -1.598E-14
    X2.VC        1.280E-11
    X2.VE        1.280E-11
    X2.VLIM     -4.584E-10
    X2.VLP      -2.500E-11
    X2.VLN      -2.500E-11
    X3.VB       -1.645E-14
    X3.VC        1.280E-11
    X3.VE        1.280E-11
    X3.VLIM      6.386E-10
    X3.VLP      -2.500E-11
    X3.VLN      -2.500E-11

    TOTAL POWER DISSIPATION   1.28E+00  WATTS



          JOB CONCLUDED

**** 10/18/18 14:10:18 ******* PSpice Lite (March 2016) ******* ID# 10813 ****

 instrumentatieversterker


 ****     JOB STATISTICS SUMMARY


******************************************************************************



  Total job time (using Solver 1)   =         .36
