
**** 11/29/18 11:24:47 ******* PSpice Lite (March 2016) ******* ID# 10813 ****

 statevariabalefilter


 ****     CIRCUIT DESCRIPTION


******************************************************************************



R1      0       1       10k
R2      1       9       18k
*18
R3      14      2       10k
R4      2       13      10k
R5      2       5       10k
R6      5       6       15k
R7      9       10      15k
*15
C1      6       9       10n
C2      10      13      10n
V1      14      0       AC      1
Vcc     3       0       DC      15
Vee     4       0       DC      -15
X1      1       2       3       4       5       TL072
X2      0       6       7       8       9       TL072
X3      0       10      11      12      13      TL072
.AC DEC 1000    3       300k
.PROBE

* TL072 OPERATIONAL AMPLIFIER "MACROMODEL" SUBCIRCUIT
* CREATED USING PARTS RELEASE 4.01 ON 06/16/89 AT 13:08
* (REV N/A)      SUPPLY VOLTAGE: +/-15V
* CONNECTIONS:   NON-INVERTING INPUT
*                | INVERTING INPUT
*                | | POSITIVE POWER SUPPLY
*                | | | NEGATIVE POWER SUPPLY
*                | | | | OUTPUT
*                | | | | |
.SUBCKT TL072    1 2 3 4 5
*
  C1   11 12 3.498E-12
  C2    6  7 15.00E-12
  DC    5 53 DX
  DE   54  5 DX
  DLP  90 91 DX
  DLN  92 90 DX
  DP    4  3 DX
  EGND 99  0 POLY(2) (3,0) (4,0) 0 .5 .5
  FB    7 99 POLY(5) VB VC VE VLP VLN 0 4.715E6 -5E6 5E6 5E6 -5E6
  GA    6  0 11 12 282.8E-6
  GCM   0  6 10 99 8.942E-9
  ISS   3 10 DC 195.0E-6
  HLIM 90  0 VLIM 1K
  J1   11  2 10 JX
  J2   12  1 10 JX
  R2    6  9 100.0E3
  RD1   4 11 3.536E3
  RD2   4 12 3.536E3
  RO1   8  5 150
  RO2   7 99 150
  RP    3  4 2.143E3
  RSS  10 99 1.026E6
  VB    9  0 DC 0
  VC    3 53 DC 2.200
  VE   54  4 DC 2.200
  VLIM  7  8 DC 0
  VLP  91  0 DC 25
  VLN   0 92 DC 25
.MODEL DX D(IS=800.0E-18)
.MODEL JX PJF(IS=15.00E-12 BETA=270.1E-6 VTO=-1)
.ENDS

.END

**** 11/29/18 11:24:47 ******* PSpice Lite (March 2016) ******* ID# 10813 ****

 statevariabalefilter


 ****     Diode MODEL PARAMETERS


******************************************************************************




               X1.DX           X2.DX           X3.DX           
          IS  800.000000E-18  800.000000E-18  800.000000E-18 


**** 11/29/18 11:24:47 ******* PSpice Lite (March 2016) ******* ID# 10813 ****

 statevariabalefilter


 ****     Junction FET MODEL PARAMETERS


******************************************************************************




               X1.JX           X2.JX           X3.JX           
               PJF             PJF             PJF             
         VTO   -1              -1              -1            
        BETA  270.100000E-06  270.100000E-06  270.100000E-06 
          IS   15.000000E-12   15.000000E-12   15.000000E-12 


**** 11/29/18 11:24:47 ******* PSpice Lite (March 2016) ******* ID# 10813 ****

 statevariabalefilter


 ****     SMALL SIGNAL BIAS SOLUTION       TEMPERATURE =   27.000 DEG C


******************************************************************************



 NODE   VOLTAGE     NODE   VOLTAGE     NODE   VOLTAGE     NODE   VOLTAGE


(    1) 456.2E-06  (    2) 467.1E-06  (    3)   15.0000  (    4)  -15.0000      

(    5)     .0013  (    6)     .0013  (    7)    1.4693  (    8)   -1.4667      

(    9)     .0013  (   10)     .0013  (   11)    1.4681  (   12)   -1.4679      

(   13) 120.1E-06  (   14)    0.0000  ( X1.6)-185.0E-09  ( X1.7)     .0013      

( X1.8)     .0013  ( X1.9)    0.0000  ( X2.6)     .0413  ( X2.7)     .0012      

( X2.8)     .0012  ( X2.9)    0.0000  ( X3.6)     .0412  ( X3.7) 56.68E-06      

( X3.8) 56.68E-06  ( X3.9)    0.0000  (X1.10)    -.3981  (X1.11)  -14.6550      

(X1.12)  -14.6550  (X1.53)   12.8000  (X1.54)  -12.8000  (X1.90) 81.49E-06      

(X1.91)   25.0000  (X1.92)  -25.0000  (X1.99)    0.0000  (X2.10)    -.3979      

(X2.11)   -1.1220  (X2.12)   -1.1205  (X2.53)    -.7307  (X2.54)     .7333      

(X2.90)-343.5E-06  (X2.91)   25.0000  (X2.92)  -25.0000  (X2.99)     .0013      

(X3.10)    -.3980  (X3.11)   -1.1232  (X3.12)   -1.1217  (X3.53)    -.7319      

(X3.54)     .7321  (X3.90)-422.7E-06  (X3.91)   25.0000  (X3.92)  -25.0000      

(X3.99) 123.3E-06  




    VOLTAGE SOURCE CURRENTS
    NAME         CURRENT

    V1           4.671E-08
    Vcc         -1.419E-02
    Vee          1.419E-02
    X1.VB       -1.850E-12
    X1.VC        1.280E-11
    X1.VE        1.280E-11
    X1.VLIM      8.149E-08
    X1.VLP      -2.500E-11
    X1.VLN      -2.500E-11
    X2.VB        4.127E-07
    X2.VC       -1.565E-03
    X2.VE       -1.565E-03
    X2.VLIM     -3.435E-07
    X2.VLP      -2.500E-11
    X2.VLN      -2.500E-11
    X3.VB        4.115E-07
    X3.VC       -1.565E-03
    X3.VE       -1.565E-03
    X3.VLIM     -4.227E-07
    X3.VLP      -2.500E-11
    X3.VLN      -2.500E-11

    TOTAL POWER DISSIPATION   4.40E-01  WATTS



          JOB CONCLUDED

**** 11/29/18 11:24:47 ******* PSpice Lite (March 2016) ******* ID# 10813 ****

 statevariabalefilter


 ****     JOB STATISTICS SUMMARY


******************************************************************************



  Total job time (using Solver 1)   =        2.19
