
**** 10/11/18 13:41:18 ******* PSpice Lite (March 2016) ******* ID# 10813 ****

 regelbareverschilversterkernlin


 ****     CIRCUIT DESCRIPTION


******************************************************************************



R1      6       1       100k
R2      1       7       100k
R3      7       5       100k
R4      8       2       100k
R5      2       9       100k
R6      9       0       100k
Rg  9   7       RMOD    1
V1      6       0       AC      1
V2      8       0       AC      2
Vcc     3       0       DC      15
Vee     4       0       DC      -15
X1      1       2       3       4       5       TL072
.AC DEC 1000    3       300k
.PROBE

* POTENTIOMETER
.MODEL RMOD RES(R=1k)
.STEP RES RMOD(R) 1k,10000,1000

* TL072 OPERATIONAL AMPLIFIER "MACROMODEL" SUBCIRCUIT
* CREATED USING PARTS RELEASE 4.01 ON 06/16/89 AT 13:08
* (REV N/A)      SUPPLY VOLTAGE: +/-15V
* CONNECTIONS:   NON-INVERTING INPUT
*                | INVERTING INPUT
*                | | POSITIVE POWER SUPPLY
*                | | | NEGATIVE POWER SUPPLY
*                | | | | OUTPUT
*                | | | | |
.SUBCKT TL072    1 2 3 4 5
*
  C1   11 12 3.498E-12
  C2    6  7 15.00E-12
  DC    5 53 DX
  DE   54  5 DX
  DLP  90 91 DX
  DLN  92 90 DX
  DP    4  3 DX
  EGND 99  0 POLY(2) (3,0) (4,0) 0 .5 .5
  FB    7 99 POLY(5) VB VC VE VLP VLN 0 4.715E6 -5E6 5E6 5E6 -5E6
  GA    6  0 11 12 282.8E-6
  GCM   0  6 10 99 8.942E-9
  ISS   3 10 DC 195.0E-6
  HLIM 90  0 VLIM 1K
  J1   11  2 10 JX
  J2   12  1 10 JX
  R2    6  9 100.0E3
  RD1   4 11 3.536E3
  RD2   4 12 3.536E3
  RO1   8  5 150
  RO2   7 99 150
  RP    3  4 2.143E3
  RSS  10 99 1.026E6
  VB    9  0 DC 0
  VC    3 53 DC 2.200
  VE   54  4 DC 2.200
  VLIM  7  8 DC 0
  VLP  91  0 DC 25
  VLN   0 92 DC 25
.MODEL DX D(IS=800.0E-18)
.MODEL JX PJF(IS=15.00E-12 BETA=270.1E-6 VTO=-1)
.ENDS

.END

**** 10/11/18 13:41:18 ******* PSpice Lite (March 2016) ******* ID# 10813 ****

 regelbareverschilversterkernlin


 ****     Diode MODEL PARAMETERS


******************************************************************************




               X1.DX           
          IS  800.000000E-18 


**** 10/11/18 13:41:18 ******* PSpice Lite (March 2016) ******* ID# 10813 ****

 regelbareverschilversterkernlin


 ****     Junction FET MODEL PARAMETERS


******************************************************************************




               X1.JX           
               PJF             
         VTO   -1            
        BETA  270.100000E-06 
          IS   15.000000E-12 


**** 10/11/18 13:41:18 ******* PSpice Lite (March 2016) ******* ID# 10813 ****

 regelbareverschilversterkernlin


 ****     Resistor MODEL PARAMETERS


******************************************************************************




               RMOD            
           R    1.000000E+03 


**** 10/11/18 13:41:18 ******* PSpice Lite (March 2016) ******* ID# 10813 ****

 regelbareverschilversterkernlin


 ****     SMALL SIGNAL BIAS SOLUTION       TEMPERATURE =   27.000 DEG C

 ****     CURRENT STEP                     RMOD R =    1.0000E+03


******************************************************************************



 NODE   VOLTAGE     NODE   VOLTAGE     NODE   VOLTAGE     NODE   VOLTAGE


(    1)    2.2502  (    2)    2.2170  (    3)   15.0000  (    4)  -15.0000      

(    5)   13.4020  (    6)    0.0000  (    7)    4.5004  (    8)    0.0000      

(    9)    4.4339  ( X1.6)   -1.0723  ( X1.7)   13.4160  ( X1.8)   13.4160      

( X1.9)    0.0000  (X1.10)    1.8314  (X1.11)  -14.6390  (X1.12)  -14.6770      

(X1.53)   12.8000  (X1.54)  -12.8000  (X1.90)     .0991  (X1.91)   25.0000      

(X1.92)  -25.0000  (X1.99)    0.0000  




    VOLTAGE SOURCE CURRENTS
    NAME         CURRENT

    V1           2.250E-05
    V2           2.217E-05
    Vcc         -1.418E-02
    Vee          1.419E-02
    X1.VB       -1.072E-05
    X1.VC       -1.009E-05
    X1.VE        2.620E-11
    X1.VLIM      9.910E-05
    X1.VLP      -2.490E-11
    X1.VLN      -2.510E-11

    TOTAL POWER DISSIPATION   4.26E-01  WATTS


**** 10/11/18 13:41:18 ******* PSpice Lite (March 2016) ******* ID# 10813 ****

 regelbareverschilversterkernlin


 ****     SMALL SIGNAL BIAS SOLUTION       TEMPERATURE =   27.000 DEG C

 ****     CURRENT STEP                     RMOD R =    2.0000E+03


******************************************************************************



 NODE   VOLTAGE     NODE   VOLTAGE     NODE   VOLTAGE     NODE   VOLTAGE


(    1)    2.2696  (    2)    2.2035  (    3)   15.0000  (    4)  -15.0000      

(    5)   13.4190  (    6)    0.0000  (    7)    4.5392  (    8)    0.0000      

(    9)    4.4070  ( X1.6)   -2.1307  ( X1.7)   13.4360  ( X1.8)   13.4360      

( X1.9)    0.0000  (X1.10)    1.8337  (X1.11)  -14.6210  (X1.12)  -14.6960      

(X1.53)   12.8000  (X1.54)  -12.8000  (X1.90)     .1089  (X1.91)   25.0000      

(X1.92)  -25.0000  (X1.99)    0.0000  




    VOLTAGE SOURCE CURRENTS
    NAME         CURRENT

    V1           2.270E-05
    V2           2.204E-05
    Vcc         -1.417E-02
    Vee          1.419E-02
    X1.VB       -2.131E-05
    X1.VC       -2.007E-05
    X1.VE        2.622E-11
    X1.VLIM      1.089E-04
    X1.VLP      -2.489E-11
    X1.VLN      -2.511E-11

    TOTAL POWER DISSIPATION   4.26E-01  WATTS


**** 10/11/18 13:41:18 ******* PSpice Lite (March 2016) ******* ID# 10813 ****

 regelbareverschilversterkernlin


 ****     SMALL SIGNAL BIAS SOLUTION       TEMPERATURE =   27.000 DEG C

 ****     CURRENT STEP                     RMOD R =    3.0000E+03


******************************************************************************



 NODE   VOLTAGE     NODE   VOLTAGE     NODE   VOLTAGE     NODE   VOLTAGE


(    1)    2.2875  (    2)    2.1890  (    3)   15.0000  (    4)  -15.0000      

(    5)   13.4300  (    6)    0.0000  (    7)    4.5751  (    8)    0.0000      

(    9)    4.3780  ( X1.6)   -3.1699  ( X1.7)   13.4470  ( X1.8)   13.4470      

( X1.9)    0.0000  (X1.10)    1.8343  (X1.11)  -14.6020  (X1.12)  -14.7140      

(X1.53)   12.8000  (X1.54)  -12.8000  (X1.90)     .1184  (X1.91)   25.0000      

(X1.92)  -25.0000  (X1.99)    0.0000  




    VOLTAGE SOURCE CURRENTS
    NAME         CURRENT

    V1           2.288E-05
    V2           2.189E-05
    Vcc         -1.416E-02
    Vee          1.419E-02
    X1.VB       -3.170E-05
    X1.VC       -2.987E-05
    X1.VE        2.623E-11
    X1.VLIM      1.184E-04
    X1.VLP      -2.488E-11
    X1.VLN      -2.512E-11

    TOTAL POWER DISSIPATION   4.25E-01  WATTS


**** 10/11/18 13:41:18 ******* PSpice Lite (March 2016) ******* ID# 10813 ****

 regelbareverschilversterkernlin


 ****     SMALL SIGNAL BIAS SOLUTION       TEMPERATURE =   27.000 DEG C

 ****     CURRENT STEP                     RMOD R =    4.0000E+03


******************************************************************************



 NODE   VOLTAGE     NODE   VOLTAGE     NODE   VOLTAGE     NODE   VOLTAGE


(    1)    2.3047  (    2)    2.1742  (    3)   15.0000  (    4)  -15.0000      

(    5)   13.4370  (    6)    0.0000  (    7)    4.6094  (    8)    0.0000      

(    9)    4.3485  ( X1.6)   -4.1877  ( X1.7)   13.4560  ( X1.8)   13.4560      

( X1.9)    0.0000  (X1.10)    1.8340  (X1.11)  -14.5840  (X1.12)  -14.7320      

(X1.53)   12.8000  (X1.54)  -12.8000  (X1.90)     .1277  (X1.91)   25.0000      

(X1.92)  -25.0000  (X1.99)    0.0000  




    VOLTAGE SOURCE CURRENTS
    NAME         CURRENT

    V1           2.305E-05
    V2           2.174E-05
    Vcc         -1.415E-02
    Vee          1.419E-02
    X1.VB       -4.188E-05
    X1.VC       -3.947E-05
    X1.VE        2.624E-11
    X1.VLIM      1.277E-04
    X1.VLP      -2.487E-11
    X1.VLN      -2.513E-11

    TOTAL POWER DISSIPATION   4.25E-01  WATTS


**** 10/11/18 13:41:18 ******* PSpice Lite (March 2016) ******* ID# 10813 ****

 regelbareverschilversterkernlin


 ****     SMALL SIGNAL BIAS SOLUTION       TEMPERATURE =   27.000 DEG C

 ****     CURRENT STEP                     RMOD R =    5.0000E+03


******************************************************************************



 NODE   VOLTAGE     NODE   VOLTAGE     NODE   VOLTAGE     NODE   VOLTAGE


(    1)    2.3214  (    2)    2.1594  (    3)   15.0000  (    4)  -15.0000      

(    5)   13.4420  (    6)    0.0000  (    7)    4.6427  (    8)    0.0000      

(    9)    4.3188  ( X1.6)   -5.1824  ( X1.7)   13.4630  ( X1.8)   13.4630      

( X1.9)    0.0000  (X1.10)    1.8329  (X1.11)  -14.5670  (X1.12)  -14.7500      

(X1.53)   12.8000  (X1.54)  -12.8000  (X1.90)     .1368  (X1.91)   25.0000      

(X1.92)  -25.0000  (X1.99)    0.0000  




    VOLTAGE SOURCE CURRENTS
    NAME         CURRENT

    V1           2.321E-05
    V2           2.159E-05
    Vcc         -1.415E-02
    Vee          1.419E-02
    X1.VB       -5.182E-05
    X1.VC       -4.885E-05
    X1.VE        2.624E-11
    X1.VLIM      1.368E-04
    X1.VLP      -2.486E-11
    X1.VLN      -2.514E-11

    TOTAL POWER DISSIPATION   4.25E-01  WATTS


**** 10/11/18 13:41:18 ******* PSpice Lite (March 2016) ******* ID# 10813 ****

 regelbareverschilversterkernlin


 ****     SMALL SIGNAL BIAS SOLUTION       TEMPERATURE =   27.000 DEG C

 ****     CURRENT STEP                     RMOD R =    6.0000E+03


******************************************************************************



 NODE   VOLTAGE     NODE   VOLTAGE     NODE   VOLTAGE     NODE   VOLTAGE


(    1)    2.3376  (    2)    2.1446  (    3)   15.0000  (    4)  -15.0000      

(    5)   13.4470  (    6)    0.0000  (    7)    4.6753  (    8)    0.0000      

(    9)    4.2892  ( X1.6)   -6.1523  ( X1.7)   13.4690  ( X1.8)   13.4690      

( X1.9)    0.0000  (X1.10)    1.8313  (X1.11)  -14.5500  (X1.12)  -14.7670      

(X1.53)   12.8000  (X1.54)  -12.8000  (X1.90)     .1457  (X1.91)   25.0000      

(X1.92)  -25.0000  (X1.99)    0.0000  




    VOLTAGE SOURCE CURRENTS
    NAME         CURRENT

    V1           2.338E-05
    V2           2.145E-05
    Vcc         -1.414E-02
    Vee          1.419E-02
    X1.VB       -6.152E-05
    X1.VC       -5.800E-05
    X1.VE        2.625E-11
    X1.VLIM      1.457E-04
    X1.VLP      -2.486E-11
    X1.VLN      -2.515E-11

    TOTAL POWER DISSIPATION   4.25E-01  WATTS


**** 10/11/18 13:41:18 ******* PSpice Lite (March 2016) ******* ID# 10813 ****

 regelbareverschilversterkernlin


 ****     SMALL SIGNAL BIAS SOLUTION       TEMPERATURE =   27.000 DEG C

 ****     CURRENT STEP                     RMOD R =    7.0000E+03


******************************************************************************



 NODE   VOLTAGE     NODE   VOLTAGE     NODE   VOLTAGE     NODE   VOLTAGE


(    1)    2.3536  (    2)    2.1299  (    3)   15.0000  (    4)  -15.0000      

(    5)   13.4500  (    6)    0.0000  (    7)    4.7071  (    8)    0.0000      

(    9)    4.2598  ( X1.6)   -7.0961  ( X1.7)   13.4740  ( X1.8)   13.4740      

( X1.9)    0.0000  (X1.10)    1.8293  (X1.11)  -14.5330  (X1.12)  -14.7840      

(X1.53)   12.8000  (X1.54)  -12.8000  (X1.90)     .1543  (X1.91)   25.0000      

(X1.92)  -25.0000  (X1.99)    0.0000  




    VOLTAGE SOURCE CURRENTS
    NAME         CURRENT

    V1           2.354E-05
    V2           2.130E-05
    Vcc         -1.413E-02
    Vee          1.419E-02
    X1.VB       -7.096E-05
    X1.VC       -6.690E-05
    X1.VE        2.625E-11
    X1.VLIM      1.543E-04
    X1.VLP      -2.485E-11
    X1.VLN      -2.516E-11

    TOTAL POWER DISSIPATION   4.25E-01  WATTS


**** 10/11/18 13:41:18 ******* PSpice Lite (March 2016) ******* ID# 10813 ****

 regelbareverschilversterkernlin


 ****     SMALL SIGNAL BIAS SOLUTION       TEMPERATURE =   27.000 DEG C

 ****     CURRENT STEP                     RMOD R =    8.0000E+03


******************************************************************************



 NODE   VOLTAGE     NODE   VOLTAGE     NODE   VOLTAGE     NODE   VOLTAGE


(    1)    2.3692  (    2)    2.1153  (    3)   15.0000  (    4)  -15.0000      

(    5)   13.4540  (    6)    0.0000  (    7)    4.7384  (    8)    0.0000      

(    9)    4.2307  ( X1.6)   -8.0124  ( X1.7)   13.4780  ( X1.8)   13.4780      

( X1.9)    0.0000  (X1.10)    1.8267  (X1.11)  -14.5170  (X1.12)  -14.8000      

(X1.53)   12.8000  (X1.54)  -12.8000  (X1.90)     .1627  (X1.91)   25.0000      

(X1.92)  -25.0000  (X1.99)    0.0000  




    VOLTAGE SOURCE CURRENTS
    NAME         CURRENT

    V1           2.369E-05
    V2           2.115E-05
    Vcc         -1.412E-02
    Vee          1.419E-02
    X1.VB       -8.012E-05
    X1.VC       -7.554E-05
    X1.VE        2.625E-11
    X1.VLIM      1.627E-04
    X1.VLP      -2.484E-11
    X1.VLN      -2.516E-11

    TOTAL POWER DISSIPATION   4.25E-01  WATTS


**** 10/11/18 13:41:18 ******* PSpice Lite (March 2016) ******* ID# 10813 ****

 regelbareverschilversterkernlin


 ****     SMALL SIGNAL BIAS SOLUTION       TEMPERATURE =   27.000 DEG C

 ****     CURRENT STEP                     RMOD R =    9.0000E+03


******************************************************************************



 NODE   VOLTAGE     NODE   VOLTAGE     NODE   VOLTAGE     NODE   VOLTAGE


(    1)    2.3845  (    2)    2.1009  (    3)   15.0000  (    4)  -15.0000      

(    5)   13.4560  (    6)    0.0000  (    7)    4.7691  (    8)    0.0000      

(    9)    4.2018  ( X1.6)   -8.9001  ( X1.7)   13.4820  ( X1.8)   13.4820      

( X1.9)    0.0000  (X1.10)    1.8237  (X1.11)  -14.5010  (X1.12)  -14.8160      

(X1.53)   12.8000  (X1.54)  -12.8000  (X1.90)     .1708  (X1.91)   25.0000      

(X1.92)  -25.0000  (X1.99)    0.0000  




    VOLTAGE SOURCE CURRENTS
    NAME         CURRENT

    V1           2.385E-05
    V2           2.101E-05
    Vcc         -1.411E-02
    Vee          1.419E-02
    X1.VB       -8.900E-05
    X1.VC       -8.391E-05
    X1.VE        2.626E-11
    X1.VLIM      1.708E-04
    X1.VLP      -2.483E-11
    X1.VLN      -2.517E-11

    TOTAL POWER DISSIPATION   4.25E-01  WATTS


**** 10/11/18 13:41:18 ******* PSpice Lite (March 2016) ******* ID# 10813 ****

 regelbareverschilversterkernlin


 ****     SMALL SIGNAL BIAS SOLUTION       TEMPERATURE =   27.000 DEG C

 ****     CURRENT STEP                     RMOD R =   10.0000E+03


******************************************************************************



 NODE   VOLTAGE     NODE   VOLTAGE     NODE   VOLTAGE     NODE   VOLTAGE


(    1)    2.3996  (    2)    2.0866  (    3)   15.0000  (    4)  -15.0000      

(    5)   13.4590  (    6)    0.0000  (    7)    4.7992  (    8)    0.0000      

(    9)    4.1732  ( X1.6)   -9.7580  ( X1.7)   13.4860  ( X1.8)   13.4860      

( X1.9)    0.0000  (X1.10)    1.8204  (X1.11)  -14.4860  (X1.12)  -14.8310      

(X1.53)   12.8000  (X1.54)  -12.8000  (X1.90)     .1786  (X1.91)   25.0000      

(X1.92)  -25.0000  (X1.99)    0.0000  




    VOLTAGE SOURCE CURRENTS
    NAME         CURRENT

    V1           2.400E-05
    V2           2.087E-05
    Vcc         -1.410E-02
    Vee          1.419E-02
    X1.VB       -9.758E-05
    X1.VC       -9.200E-05
    X1.VE        2.626E-11
    X1.VLIM      1.786E-04
    X1.VLP      -2.482E-11
    X1.VLN      -2.518E-11

    TOTAL POWER DISSIPATION   4.25E-01  WATTS



          JOB CONCLUDED

**** 10/11/18 13:41:18 ******* PSpice Lite (March 2016) ******* ID# 10813 ****

 regelbareverschilversterkernlin


 ****     JOB STATISTICS SUMMARY

 ****     CURRENT STEP                     RMOD R =   10.0000E+03


******************************************************************************



  Total job time (using Solver 1)   =        1.52
